Time[s], Channel 0, Channel 1, Channel 2, Channel 3, Channel 4, Channel 5, Channel 6, Channel 7
0.000000000000000, 0, 1, 0, 0, 0, 0, 0, 0
2.620725000000000, 0, 0, 0, 0, 0, 0, 0, 0
4.311650000000000, 1, 0, 0, 0, 0, 0, 0, 0
6.232074000000000, 1, 0, 0, 0, 0, 1, 0, 0
7.176056999999999, 0, 0, 0, 0, 0, 1, 0, 0
8.974753000000000, 0, 0, 0, 0, 0, 0, 0, 0
9.682629000000000, 0, 0, 1, 0, 0, 0, 0, 0
12.297813999999999, 0, 0, 0, 0, 0, 0, 0, 0
20.623113000000000, 0, 0, 0, 0, 1, 0, 0, 0
23.691084999999998, 0, 0, 0, 0, 0, 0, 0, 0
25.804698999999999, 0, 0, 0, 0, 0, 0, 1, 0
28.331959999999999, 0, 0, 0, 0, 0, 0, 0, 0
28.776436000000000, 0, 1, 0, 0, 0, 0, 0, 0
31.646426999999999, 0, 0, 0, 0, 0, 0, 0, 0
33.254103999999998, 0, 0, 0, 1, 0, 0, 0, 0
35.704875000000001, 0, 0, 0, 1, 0, 1, 0, 0
35.981017000000001, 0, 0, 0, 0, 0, 1, 0, 0
36.692558999999996, 0, 0, 0, 0, 0, 1, 0, 1
38.439906999999998, 0, 0, 0, 0, 0, 0, 0, 1
39.475380000000001, 0, 0, 0, 0, 0, 0, 0, 0
39.913291999999998, 1, 0, 0, 0, 0, 0, 0, 0
42.779406000000002, 0, 0, 0, 0, 0, 0, 0, 0
42.846699000000001, 0, 0, 1, 0, 0, 0, 0, 0
45.461352999999995, 0, 0, 0, 0, 0, 0, 0, 0
53.432432999999996, 0, 0, 0, 0, 1, 0, 0, 0
56.501562999999997, 0, 0, 0, 0, 0, 0, 0, 0
58.057581999999996, 0, 1, 0, 0, 0, 0, 0, 0
58.928767999999998, 0, 1, 0, 0, 0, 0, 1, 0
60.925136999999999, 0, 0, 0, 0, 0, 0, 1, 0
61.450741999999998, 0, 0, 0, 0, 0, 0, 0, 0
65.179244999999995, 0, 0, 0, 0, 0, 1, 0, 0
67.914496000000000, 0, 0, 0, 0, 0, 0, 0, 0
69.587532999999993, 0, 0, 0, 1, 0, 0, 0, 0
72.314060999999995, 0, 0, 0, 0, 0, 0, 0, 0
75.520527999999999, 1, 0, 0, 0, 0, 0, 0, 0
76.128602999999998, 1, 0, 1, 0, 0, 0, 0, 0
78.328318999999993, 0, 0, 1, 0, 0, 0, 0, 0
78.742556999999991, 0, 0, 0, 0, 0, 0, 0, 0
86.302978999999993, 0, 0, 0, 0, 1, 0, 0, 0
87.338859999999997, 0, 1, 0, 0, 1, 0, 0, 0
89.369124999999997, 0, 1, 0, 0, 0, 0, 0, 0
90.207200999999998, 0, 0, 0, 0, 0, 0, 0, 0
91.795931999999993, 0, 0, 0, 0, 0, 0, 1, 0
92.101573999999999, 0, 0, 0, 0, 0, 0, 1, 1
94.320027999999994, 0, 0, 0, 0, 0, 0, 0, 1
94.655892999999992, 0, 0, 0, 0, 0, 1, 0, 1
94.882196999999991, 0, 0, 0, 0, 0, 1, 0, 0
97.464793000000000, 0, 0, 0, 0, 0, 0, 0, 0
105.859186999999991, 0, 0, 0, 1, 0, 0, 0, 0
108.584676000000002, 0, 0, 0, 0, 0, 0, 0, 0
109.236481999999995, 0, 0, 1, 0, 0, 0, 0, 0
110.836410000000001, 1, 0, 1, 0, 0, 0, 0, 0
111.852185999999989, 1, 0, 0, 0, 0, 0, 0, 0
113.643876999999989, 0, 0, 0, 0, 0, 0, 0, 0
116.689301000000000, 0, 1, 0, 0, 0, 0, 0, 0
119.116287999999997, 0, 1, 0, 0, 1, 0, 0, 0
119.556922000000000, 0, 0, 0, 0, 1, 0, 0, 0
122.121400999999992, 0, 0, 0, 0, 0, 0, 0, 0
124.857606999999987, 0, 0, 0, 0, 0, 0, 1, 0
125.004365999999990, 0, 0, 0, 0, 0, 1, 1, 0
127.382571999999996, 0, 0, 0, 0, 0, 1, 0, 0
127.742519999999999, 0, 0, 0, 0, 0, 0, 0, 0
142.321991999999995, 0, 0, 0, 1, 0, 0, 0, 0
142.525673999999981, 0, 0, 1, 1, 0, 0, 0, 0
145.048665000000000, 0, 0, 1, 0, 0, 0, 0, 0
145.083663999999999, 0, 0, 0, 0, 0, 0, 0, 0
146.034510999999981, 0, 1, 0, 0, 0, 0, 0, 0
146.041867999999994, 1, 1, 0, 0, 0, 0, 0, 0
148.075322999999997, 1, 1, 0, 0, 0, 0, 0, 1
148.900450000000006, 1, 0, 0, 0, 0, 0, 0, 1
148.908223999999990, 0, 0, 0, 0, 0, 0, 0, 1
150.858418000000000, 0, 0, 0, 0, 0, 0, 0, 0
151.445048999999983, 0, 0, 0, 0, 1, 0, 0, 0
154.294622000000004, 0, 0, 0, 0, 1, 1, 0, 0
154.512917999999985, 0, 0, 0, 0, 0, 1, 0, 0
157.094954999999999, 0, 0, 0, 0, 0, 0, 0, 0
157.858559999999983, 0, 0, 0, 0, 0, 0, 1, 0
160.376684999999981, 0, 0, 0, 0, 0, 0, 0, 0
175.004565999999983, 0, 1, 0, 0, 0, 0, 0, 0
175.463712999999984, 0, 1, 1, 0, 0, 0, 0, 0
177.811046000000005, 0, 0, 1, 0, 0, 0, 0, 0
178.080429999999978, 0, 0, 0, 0, 0, 0, 0, 0
178.788914000000005, 0, 0, 0, 1, 0, 0, 0, 0
181.515541999999982, 0, 0, 0, 0, 0, 0, 0, 0
181.829566999999997, 1, 0, 0, 0, 0, 0, 0, 0
184.334700999999995, 1, 0, 0, 0, 0, 1, 0, 0
184.383021999999983, 1, 0, 0, 0, 1, 1, 0, 0
184.634562999999986, 0, 0, 0, 0, 1, 1, 0, 0
187.141351999999983, 0, 0, 0, 0, 1, 0, 0, 0
187.448954999999984, 0, 0, 0, 0, 0, 0, 0, 0
190.538196999999997, 0, 0, 0, 0, 0, 0, 1, 0
193.063219000000004, 0, 0, 0, 0, 0, 0, 0, 0
203.370782999999989, 0, 0, 0, 0, 0, 0, 0, 1
203.916862999999978, 0, 1, 0, 0, 0, 0, 0, 1
206.152832999999987, 0, 1, 0, 0, 0, 0, 0, 0
206.787126000000001, 0, 0, 0, 0, 0, 0, 0, 0
208.757152999999988, 0, 0, 1, 0, 0, 0, 0, 0
211.374025999999986, 0, 0, 0, 0, 0, 0, 0, 0
214.562867999999980, 0, 0, 0, 0, 0, 1, 0, 0
215.194679999999977, 0, 0, 0, 1, 0, 1, 0, 0
217.152791999999977, 1, 0, 0, 1, 0, 1, 0, 0
217.323303999999979, 1, 0, 0, 1, 1, 1, 0, 0
217.370527999999979, 1, 0, 0, 1, 1, 0, 0, 0
217.921922999999992, 1, 0, 0, 0, 1, 0, 0, 0
219.957699999999988, 0, 0, 0, 0, 1, 0, 0, 0
220.390559999999994, 0, 0, 0, 0, 0, 0, 0, 0
223.606193999999988, 0, 0, 0, 0, 0, 0, 1, 0
226.123651999999993, 0, 0, 0, 0, 0, 0, 0, 0
233.343530999999984, 0, 1, 0, 0, 0, 0, 0, 0
236.211851999999993, 0, 0, 0, 0, 0, 0, 0, 0
242.052393999999993, 0, 0, 1, 0, 0, 0, 0, 0
244.666953999999976, 0, 0, 0, 0, 0, 0, 0, 0
244.854114999999979, 0, 0, 0, 0, 0, 1, 0, 0
247.587763999999993, 0, 0, 0, 0, 0, 0, 0, 0
250.266330999999980, 0, 0, 0, 0, 1, 0, 0, 0
251.666375999999985, 0, 0, 0, 1, 1, 0, 0, 0
252.302688999999987, 1, 0, 0, 1, 1, 0, 0, 0
253.271435999999994, 1, 0, 0, 1, 0, 0, 0, 0
254.392527000000001, 1, 0, 0, 0, 0, 0, 0, 0
255.111334999999997, 0, 0, 0, 0, 0, 0, 0, 0
256.419033000000013, 0, 0, 0, 0, 0, 0, 1, 0
258.735626999999965, 0, 0, 0, 0, 0, 0, 1, 1
258.944757999999979, 0, 0, 0, 0, 0, 0, 0, 1
261.516788999999960, 0, 0, 0, 0, 0, 0, 0, 0
262.759699000000012, 0, 1, 0, 0, 0, 0, 0, 0
265.630646000000013, 0, 0, 0, 0, 0, 0, 0, 0
274.398574999999994, 0, 0, 0, 0, 0, 1, 0, 0
275.410195999999985, 0, 0, 1, 0, 0, 1, 0, 0
277.192433999999992, 0, 0, 1, 0, 0, 0, 0, 0
278.027310999999997, 0, 0, 0, 0, 0, 0, 0, 0
282.722313999999983, 0, 0, 0, 0, 1, 0, 0, 0
285.732717999999977, 0, 0, 0, 0, 0, 0, 0, 0
287.570133999999996, 1, 0, 0, 0, 0, 0, 0, 0
288.194210999999996, 1, 0, 0, 1, 0, 0, 0, 0
289.492270999999960, 1, 0, 0, 1, 0, 0, 1, 0
290.375682999999981, 0, 0, 0, 1, 0, 0, 1, 0
290.918269000000009, 0, 0, 0, 0, 0, 0, 1, 0
291.915061999999978, 0, 1, 0, 0, 0, 0, 1, 0
292.010840999999971, 0, 1, 0, 0, 0, 0, 0, 0
294.719831999999997, 0, 0, 0, 0, 0, 0, 0, 0
