Time[s], Channel 0, Channel 1, Channel 2, Channel 3, Channel 4, Channel 5, Channel 6, Channel 7, Channel 8
0.000000000000000, 0, 0, 0, 0, 0, 0, 0, 0, 0
6.530391000000000, 1, 0, 0, 0, 0, 0, 0, 0, 0
6.530573000000000, 1, 1, 0, 0, 0, 0, 0, 0, 0
6.531736000000000, 1, 1, 1, 0, 0, 0, 0, 0, 0
6.535965999999999, 1, 1, 1, 0, 0, 0, 0, 0, 1
6.536198000000000, 1, 1, 1, 0, 1, 0, 0, 0, 1
6.536307000000000, 1, 1, 1, 1, 1, 0, 0, 0, 1
6.536384000000000, 1, 1, 1, 1, 1, 1, 0, 0, 1
6.545563000000000, 1, 1, 1, 1, 1, 1, 0, 1, 1
6.550929000000000, 1, 1, 1, 1, 1, 1, 1, 1, 1
6.741286000000000, 1, 1, 0, 1, 1, 1, 1, 1, 1
6.803868000000000, 1, 1, 0, 0, 1, 1, 1, 1, 1
6.804518000000000, 1, 1, 0, 0, 1, 1, 1, 0, 1
6.816610000000000, 0, 1, 0, 0, 1, 1, 1, 0, 1
6.818108000000000, 0, 0, 0, 0, 1, 1, 1, 0, 1
6.821075000000000, 0, 0, 0, 0, 1, 1, 1, 0, 0
6.821667000000000, 0, 0, 0, 0, 0, 1, 1, 0, 0
6.823233000000000, 0, 0, 0, 0, 0, 0, 1, 0, 0
6.837936000000000, 0, 0, 0, 0, 0, 0, 0, 0, 0
7.532108000000000, 0, 1, 0, 0, 0, 0, 0, 0, 0
7.537650999999999, 0, 1, 0, 0, 1, 0, 0, 0, 0
7.537836000000000, 0, 1, 0, 0, 1, 1, 0, 0, 0
7.540109999999999, 0, 1, 0, 0, 1, 1, 0, 0, 1
7.685156999999999, 0, 1, 0, 0, 1, 0, 0, 0, 1
7.717607999999999, 0, 1, 0, 0, 0, 0, 0, 0, 1
7.819655999999999, 0, 0, 0, 0, 0, 0, 0, 0, 1
7.825221999999999, 0, 0, 0, 0, 0, 0, 0, 0, 0
8.533560000000000, 0, 1, 0, 0, 0, 0, 0, 0, 0
8.540960999999999, 0, 1, 0, 0, 0, 0, 0, 0, 1
8.640561999999999, 0, 0, 0, 0, 0, 0, 0, 0, 1
8.826057000000000, 0, 0, 0, 0, 0, 0, 0, 0, 0
9.542411999999999, 0, 0, 0, 0, 0, 0, 0, 0, 1
9.827525000000000, 0, 0, 0, 0, 0, 0, 0, 0, 0
10.544464999999999, 0, 0, 0, 0, 0, 0, 0, 0, 1
10.829570000000000, 0, 0, 0, 0, 0, 0, 0, 0, 0
11.538995000000000, 0, 0, 1, 0, 0, 0, 0, 0, 0
11.545316000000000, 0, 0, 1, 0, 0, 0, 0, 0, 1
11.666934999999999, 0, 0, 1, 0, 0, 0, 1, 0, 1
11.825726000000000, 0, 0, 0, 0, 0, 0, 1, 0, 1
11.830421999999999, 0, 0, 0, 0, 0, 0, 1, 0, 0
11.879686999999999, 0, 0, 0, 0, 0, 0, 0, 0, 0
12.539190999999999, 1, 0, 0, 0, 0, 0, 0, 0, 0
12.539282000000000, 1, 1, 0, 0, 0, 0, 0, 0, 0
12.544824000000000, 1, 1, 0, 0, 1, 0, 0, 0, 0
12.545007000000000, 1, 1, 0, 0, 1, 1, 0, 0, 0
12.545017999999999, 1, 1, 0, 1, 1, 1, 0, 0, 0
12.546768000000000, 1, 1, 0, 1, 1, 1, 0, 0, 1
12.554186999999999, 1, 1, 0, 1, 1, 1, 0, 1, 1
12.782204000000000, 0, 1, 0, 1, 1, 1, 0, 1, 1
12.826832999999999, 0, 0, 0, 1, 1, 1, 0, 1, 1
12.830307999999999, 0, 0, 0, 1, 0, 1, 0, 1, 1
12.830345999999999, 0, 0, 0, 0, 0, 1, 0, 1, 1
12.831863999999999, 0, 0, 0, 0, 0, 0, 0, 1, 1
12.831864999999999, 0, 0, 0, 0, 0, 0, 0, 1, 0
12.841337999999999, 0, 0, 0, 0, 0, 0, 0, 0, 0
13.546298999999999, 0, 0, 0, 0, 0, 0, 0, 0, 1
13.831382999999999, 0, 0, 0, 0, 0, 0, 0, 0, 0
14.547751000000000, 0, 0, 0, 0, 0, 0, 0, 0, 1
14.832842999999999, 0, 0, 0, 0, 0, 0, 0, 0, 0
15.551122999999999, 0, 0, 0, 0, 0, 0, 0, 0, 1
15.836226000000000, 0, 0, 0, 0, 0, 0, 0, 0, 0
16.550653999999998, 0, 0, 0, 0, 0, 0, 0, 0, 1
16.571867000000001, 0, 0, 0, 0, 0, 0, 1, 0, 1
16.681099000000000, 0, 0, 1, 0, 0, 0, 1, 0, 1
16.835760000000001, 0, 0, 1, 0, 0, 0, 1, 0, 0
16.858858999999999, 0, 0, 1, 0, 0, 0, 0, 0, 0
16.967849999999999, 0, 0, 0, 0, 0, 0, 0, 0, 0
17.546360000000000, 1, 0, 0, 0, 0, 0, 0, 0, 0
17.546626000000000, 1, 1, 0, 0, 0, 0, 0, 0, 0
17.552105999999998, 1, 1, 0, 0, 0, 0, 0, 0, 1
17.552167999999998, 1, 1, 0, 0, 1, 0, 0, 0, 1
17.552353999999998, 1, 1, 0, 0, 1, 1, 0, 0, 1
17.832570999999998, 0, 1, 0, 0, 1, 1, 0, 0, 1
17.834170000000000, 0, 0, 0, 0, 1, 1, 0, 0, 1
17.837205000000001, 0, 0, 0, 0, 1, 1, 0, 0, 0
17.837650000000000, 0, 0, 0, 0, 0, 1, 0, 0, 0
17.839223000000000, 0, 0, 0, 0, 0, 0, 0, 0, 0
18.553557999999999, 0, 0, 0, 0, 0, 0, 0, 0, 1
18.556249999999999, 0, 0, 0, 1, 0, 0, 0, 0, 1
18.752799000000000, 0, 0, 0, 1, 0, 0, 0, 1, 1
18.838656999999998, 0, 0, 0, 1, 0, 0, 0, 1, 0
18.841590000000000, 0, 0, 0, 0, 0, 0, 0, 1, 0
19.039964999999999, 0, 0, 0, 0, 0, 0, 0, 0, 0
19.556929999999998, 0, 0, 0, 0, 0, 0, 0, 0, 1
19.842036999999998, 0, 0, 0, 0, 0, 0, 0, 0, 0
20.556460999999999, 0, 0, 0, 0, 0, 0, 0, 0, 1
20.841571999999999, 0, 0, 0, 0, 0, 0, 0, 0, 0
21.557912999999999, 0, 0, 0, 0, 0, 0, 0, 0, 1
21.779530999999999, 0, 0, 1, 0, 0, 0, 0, 0, 1
21.843015999999999, 0, 0, 1, 0, 0, 0, 0, 0, 0
22.066278000000001, 0, 0, 0, 0, 0, 0, 0, 0, 0
22.553884000000000, 0, 1, 0, 0, 0, 0, 0, 0, 0
22.559426999999999, 0, 1, 0, 0, 1, 0, 0, 0, 0
22.559612999999999, 0, 1, 0, 0, 1, 1, 0, 0, 0
22.561886999999999, 0, 1, 0, 0, 1, 1, 0, 0, 1
22.580938999999997, 0, 1, 0, 0, 1, 1, 1, 0, 1
22.841426999999999, 0, 0, 0, 0, 1, 1, 1, 0, 1
22.844895999999999, 0, 0, 0, 0, 0, 1, 1, 0, 1
22.846460999999998, 0, 0, 0, 0, 0, 0, 1, 0, 1
22.846992000000000, 0, 0, 0, 0, 0, 0, 1, 0, 0
22.867926999999998, 0, 0, 0, 0, 0, 0, 0, 0, 0
23.555159000000000, 1, 0, 0, 0, 0, 0, 0, 0, 0
23.560815999999999, 1, 0, 0, 0, 0, 0, 0, 0, 1
23.841379999999997, 0, 0, 0, 0, 0, 0, 0, 0, 1
23.845911999999998, 0, 0, 0, 0, 0, 0, 0, 0, 0
24.564188999999999, 0, 0, 0, 0, 0, 0, 0, 0, 1
24.564874999999997, 0, 0, 0, 1, 0, 0, 0, 0, 1
24.849287000000000, 0, 0, 0, 1, 0, 0, 0, 0, 0
24.850211999999999, 0, 0, 0, 0, 0, 0, 0, 0, 0
25.563718999999999, 0, 0, 0, 0, 0, 0, 0, 0, 1
25.573145999999998, 0, 0, 0, 0, 0, 0, 0, 1, 1
25.848817000000000, 0, 0, 0, 0, 0, 0, 0, 1, 0
25.860302999999998, 0, 0, 0, 0, 0, 0, 0, 0, 0
26.565170999999999, 0, 0, 0, 0, 0, 0, 0, 0, 1
26.850261000000000, 0, 0, 0, 0, 0, 0, 0, 0, 0
27.562307999999998, 0, 0, 1, 0, 0, 0, 0, 0, 0
27.566685000000000, 0, 0, 1, 0, 1, 0, 0, 0, 0
27.568543999999999, 0, 0, 1, 0, 1, 0, 0, 0, 1
27.573190999999998, 0, 0, 1, 0, 1, 1, 0, 0, 1
27.597721999999997, 0, 1, 1, 0, 1, 1, 0, 0, 1
27.796409999999998, 0, 1, 1, 0, 1, 1, 1, 0, 1
27.849048000000000, 0, 1, 0, 0, 1, 1, 1, 0, 1
27.852167999999999, 0, 1, 0, 0, 0, 1, 1, 0, 1
27.853634000000000, 0, 1, 0, 0, 0, 1, 1, 0, 0
27.860049000000000, 0, 1, 0, 0, 0, 0, 1, 0, 0
27.885278000000000, 0, 0, 0, 0, 0, 0, 1, 0, 0
28.083406000000000, 0, 0, 0, 0, 0, 0, 0, 0, 0
28.569994999999999, 0, 0, 0, 0, 0, 0, 0, 0, 1
28.855093999999998, 0, 0, 0, 0, 0, 0, 0, 0, 0
29.563869000000000, 1, 0, 0, 0, 0, 0, 0, 0, 0
29.572049000000000, 1, 0, 0, 0, 0, 0, 0, 0, 1
29.850088000000000, 0, 0, 0, 0, 0, 0, 0, 0, 1
29.857149000000000, 0, 0, 0, 0, 0, 0, 0, 0, 0
30.570978000000000, 0, 0, 0, 0, 0, 0, 0, 0, 1
30.573670000000000, 0, 0, 0, 1, 0, 0, 0, 0, 1
30.856088999999997, 0, 0, 0, 1, 0, 0, 0, 0, 0
30.858998999999997, 0, 0, 0, 0, 0, 0, 0, 0, 0
31.574349999999999, 0, 0, 0, 0, 0, 0, 0, 0, 1
31.859449999999999, 0, 0, 0, 0, 0, 0, 0, 0, 0
32.568401000000001, 0, 1, 0, 0, 0, 0, 0, 0, 0
32.573881000000000, 0, 1, 0, 0, 0, 0, 0, 0, 1
32.574128999999999, 0, 1, 0, 0, 0, 1, 0, 0, 1
32.583307999999995, 0, 1, 0, 0, 0, 1, 0, 1, 1
32.625777999999997, 0, 1, 1, 0, 0, 1, 0, 1, 1
32.691271000000000, 0, 1, 1, 0, 1, 1, 0, 1, 1
32.855950999999997, 0, 0, 1, 0, 1, 1, 0, 1, 1
32.858989999999999, 0, 0, 1, 0, 1, 1, 0, 1, 0
32.860984000000002, 0, 0, 1, 0, 1, 0, 0, 1, 0
32.870455000000000, 0, 0, 1, 0, 1, 0, 0, 0, 0
32.912037999999995, 0, 0, 0, 0, 1, 0, 0, 0, 0
32.976751999999998, 0, 0, 0, 0, 0, 0, 0, 0, 0
33.575333000000001, 0, 0, 0, 0, 0, 0, 0, 0, 1
33.596907000000002, 0, 0, 0, 0, 0, 0, 1, 0, 1
33.860433999999998, 0, 0, 0, 0, 0, 0, 1, 0, 0
33.883897999999995, 0, 0, 0, 0, 0, 0, 0, 0, 0
34.576783999999996, 0, 0, 0, 0, 0, 0, 0, 0, 1
34.822271000000001, 1, 0, 0, 0, 0, 0, 0, 0, 1
34.861874999999998, 1, 0, 0, 0, 0, 0, 0, 0, 0
35.035786999999999, 0, 0, 0, 0, 0, 0, 0, 0, 0
35.580157000000000, 0, 0, 0, 0, 0, 0, 0, 0, 1
35.865252999999996, 0, 0, 0, 0, 0, 0, 0, 0, 0
36.579687999999997, 0, 0, 0, 0, 0, 0, 0, 0, 1
36.582294999999995, 0, 0, 0, 1, 0, 0, 0, 0, 1
36.829699999999995, 0, 0, 0, 0, 0, 0, 0, 0, 1
36.864790999999997, 0, 0, 0, 0, 0, 0, 0, 0, 0
37.575659000000002, 0, 1, 0, 0, 0, 0, 0, 0, 0
37.576738999999996, 0, 1, 1, 0, 0, 0, 0, 0, 0
37.581139999999998, 0, 1, 1, 0, 0, 0, 0, 0, 1
37.581201999999998, 0, 1, 1, 0, 1, 0, 0, 0, 1
37.581387999999997, 0, 1, 1, 0, 1, 1, 0, 0, 1
37.834496999999999, 0, 1, 1, 0, 0, 1, 0, 0, 1
37.863211999999997, 0, 0, 1, 0, 0, 1, 0, 0, 1
37.863475999999999, 0, 0, 0, 0, 0, 1, 0, 0, 1
37.866236999999998, 0, 0, 0, 0, 0, 1, 0, 0, 0
37.868234000000001, 0, 0, 0, 0, 0, 0, 0, 0, 0
38.582591999999998, 0, 0, 0, 0, 0, 0, 0, 0, 1
38.867683999999997, 0, 0, 0, 0, 0, 0, 0, 0, 0
39.578296999999999, 1, 0, 0, 0, 0, 0, 0, 0, 0
39.585963999999997, 1, 0, 0, 0, 0, 0, 0, 0, 1
39.593384000000000, 1, 0, 0, 0, 0, 0, 0, 1, 1
39.605618000000000, 1, 0, 0, 0, 0, 0, 1, 1, 1
39.794829999999997, 1, 0, 0, 0, 0, 0, 0, 1, 1
39.864514000000000, 0, 0, 0, 0, 0, 0, 0, 1, 1
39.871060000000000, 0, 0, 0, 0, 0, 0, 0, 1, 0
39.880534999999995, 0, 0, 0, 0, 0, 0, 0, 0, 0
40.587415999999997, 0, 0, 0, 0, 0, 0, 0, 0, 1
40.872506000000001, 0, 0, 0, 0, 0, 0, 0, 0, 0
41.587116999999999, 0, 0, 0, 1, 0, 0, 0, 0, 0
41.588867000000000, 0, 0, 0, 1, 0, 0, 0, 0, 1
41.872439000000000, 0, 0, 0, 0, 0, 0, 0, 0, 1
41.873958999999999, 0, 0, 0, 0, 0, 0, 0, 0, 0
42.582916999999995, 0, 1, 0, 0, 0, 0, 0, 0, 0
42.588377000000001, 0, 1, 0, 0, 1, 0, 0, 0, 0
42.588398999999995, 0, 1, 0, 0, 1, 0, 0, 0, 1
42.694120999999996, 0, 1, 0, 0, 1, 1, 0, 0, 1
42.731943000000001, 0, 1, 1, 0, 1, 1, 0, 0, 1
42.870474000000002, 0, 0, 1, 0, 1, 1, 0, 0, 1
42.873494000000001, 0, 0, 1, 0, 1, 1, 0, 0, 0
42.873854999999999, 0, 0, 1, 0, 0, 1, 0, 0, 0
42.980965999999995, 0, 0, 1, 0, 0, 0, 0, 0, 0
43.018688999999995, 0, 0, 0, 0, 0, 0, 0, 0, 0
43.592371999999997, 0, 0, 0, 0, 0, 0, 0, 0, 1
43.877465000000001, 0, 0, 0, 0, 0, 0, 0, 0, 0
44.593823999999998, 0, 0, 0, 0, 0, 0, 0, 0, 1
44.612514999999995, 0, 0, 0, 0, 0, 0, 1, 0, 1
44.878912000000000, 0, 0, 0, 0, 0, 0, 1, 0, 0
44.899507000000000, 0, 0, 0, 0, 0, 0, 0, 0, 0
45.587095999999995, 1, 0, 0, 0, 0, 0, 0, 0, 0
45.594673999999998, 1, 0, 0, 0, 0, 0, 0, 0, 1
45.873311000000001, 0, 0, 0, 0, 0, 0, 0, 0, 1
45.879768999999996, 0, 0, 0, 0, 0, 0, 0, 0, 0
46.594204999999995, 0, 0, 0, 0, 0, 0, 0, 0, 1
46.603631999999998, 0, 0, 0, 0, 0, 0, 0, 1, 1
46.849973999999996, 0, 0, 0, 0, 0, 0, 0, 0, 1
46.879293999999994, 0, 0, 0, 0, 0, 0, 0, 0, 0
47.590176000000000, 0, 1, 0, 0, 0, 0, 0, 0, 0
47.595827000000000, 0, 1, 0, 1, 0, 0, 0, 0, 0
47.597577999999999, 0, 1, 0, 1, 0, 0, 0, 0, 1
47.612828999999998, 0, 1, 0, 1, 0, 1, 0, 0, 1
47.663607999999996, 0, 1, 0, 1, 1, 1, 0, 0, 1
47.772528999999999, 0, 1, 1, 1, 1, 1, 0, 0, 1
47.877730999999997, 0, 0, 1, 1, 1, 1, 0, 0, 1
47.881155999999997, 0, 0, 1, 0, 1, 1, 0, 0, 1
47.882669999999997, 0, 0, 1, 0, 1, 1, 0, 0, 0
47.899682999999996, 0, 0, 1, 0, 1, 0, 0, 0, 0
47.949103999999998, 0, 0, 1, 0, 0, 0, 0, 0, 0
48.059266000000001, 0, 0, 0, 0, 0, 0, 0, 0, 0
48.597107999999999, 0, 0, 0, 0, 0, 0, 0, 0, 1
48.882193000000001, 0, 0, 0, 0, 0, 0, 0, 0, 0
49.601165999999999, 0, 0, 0, 0, 0, 0, 0, 0, 1
49.830964999999999, 0, 0, 0, 0, 0, 0, 1, 0, 1
49.886249999999997, 0, 0, 0, 0, 0, 0, 1, 0, 0
50.117956000000000, 0, 0, 0, 0, 0, 0, 0, 0, 0
50.602533999999999, 0, 0, 0, 0, 0, 0, 0, 0, 1
50.887625999999997, 0, 0, 0, 0, 0, 0, 0, 0, 0
51.595807000000001, 1, 0, 0, 0, 0, 0, 0, 0, 0
51.603383999999998, 1, 0, 0, 0, 0, 0, 0, 0, 1
51.882019000000000, 0, 0, 0, 0, 0, 0, 0, 0, 1
51.888476999999995, 0, 0, 0, 0, 0, 0, 0, 0, 0
52.602976999999996, 0, 0, 0, 0, 1, 0, 0, 0, 0
52.603164000000000, 0, 0, 0, 0, 1, 1, 0, 0, 0
52.604835999999999, 0, 0, 0, 0, 1, 1, 0, 0, 1
52.612255999999995, 0, 0, 0, 0, 1, 1, 0, 1, 1
52.634816999999998, 0, 1, 0, 0, 1, 1, 0, 1, 1
52.815117000000001, 0, 1, 1, 0, 1, 1, 0, 1, 1
52.888459999999995, 0, 1, 1, 0, 0, 1, 0, 1, 1
52.889928999999995, 0, 1, 1, 0, 0, 1, 0, 1, 0
52.890018999999995, 0, 1, 1, 0, 0, 0, 0, 1, 0
52.899409999999996, 0, 1, 1, 0, 0, 0, 0, 0, 0
52.922368999999996, 0, 0, 1, 0, 0, 0, 0, 0, 0
53.101859999999995, 0, 0, 0, 0, 0, 0, 0, 0, 0
53.604366999999996, 0, 0, 0, 0, 0, 0, 0, 0, 1
53.607059000000000, 0, 0, 0, 1, 0, 0, 0, 0, 1
53.889465999999999, 0, 0, 0, 1, 0, 0, 0, 0, 0
53.892392000000001, 0, 0, 0, 0, 0, 0, 0, 0, 0
54.605817999999999, 0, 0, 0, 0, 0, 0, 0, 0, 1
54.890912000000000, 0, 0, 0, 0, 0, 0, 0, 0, 0
55.609792999999996, 0, 0, 0, 0, 0, 0, 0, 0, 1
55.628844999999998, 0, 0, 0, 0, 0, 0, 1, 0, 1
55.894901999999995, 0, 0, 0, 0, 0, 0, 1, 0, 0
55.915835999999999, 0, 0, 0, 0, 0, 0, 0, 0, 0
56.610642999999996, 0, 0, 0, 0, 0, 0, 0, 0, 1
56.895736999999997, 0, 0, 0, 0, 0, 0, 0, 0, 0
57.604516999999994, 1, 0, 0, 0, 0, 0, 0, 0, 0
57.610236000000000, 1, 0, 0, 0, 1, 0, 0, 0, 0
57.610422999999997, 1, 0, 0, 0, 1, 1, 0, 0, 0
57.612094999999997, 1, 0, 0, 0, 1, 1, 0, 0, 1
57.676088999999997, 1, 1, 0, 0, 1, 1, 0, 0, 1
57.805551999999999, 0, 1, 0, 0, 1, 1, 0, 0, 1
57.895719999999997, 0, 1, 0, 0, 0, 1, 0, 0, 1
57.897194999999996, 0, 1, 0, 0, 0, 1, 0, 0, 0
57.897283999999999, 0, 1, 0, 0, 0, 0, 0, 0, 0
57.900337000000000, 0, 0, 0, 0, 0, 0, 0, 0, 0
58.607310999999996, 0, 0, 1, 0, 0, 0, 0, 0, 0
58.614148000000000, 0, 0, 1, 0, 0, 0, 0, 0, 1
58.803533999999999, 0, 0, 1, 0, 0, 0, 0, 1, 1
58.894050999999997, 0, 0, 0, 0, 0, 0, 0, 1, 1
58.899260999999996, 0, 0, 0, 0, 0, 0, 0, 1, 0
59.090696999999999, 0, 0, 0, 0, 0, 0, 0, 0, 0
59.615598999999996, 0, 0, 0, 0, 0, 0, 0, 0, 1
59.615769000000000, 0, 0, 0, 1, 0, 0, 0, 0, 1
59.900701999999995, 0, 0, 0, 1, 0, 0, 0, 0, 0
59.901087999999994, 0, 0, 0, 0, 0, 0, 0, 0, 0
60.616450000000000, 0, 0, 0, 0, 0, 0, 0, 0, 1
60.636102999999999, 0, 0, 0, 0, 0, 0, 1, 0, 1
60.901556999999997, 0, 0, 0, 0, 0, 0, 1, 0, 0
60.923099999999998, 0, 0, 0, 0, 0, 0, 0, 0, 0
61.617901999999994, 0, 0, 0, 0, 0, 0, 0, 0, 1
61.847978999999995, 0, 1, 0, 0, 0, 0, 0, 0, 1
61.903009999999995, 0, 1, 0, 0, 0, 0, 0, 0, 0
62.135526999999996, 0, 0, 0, 0, 0, 0, 0, 0, 0
62.611685999999999, 1, 0, 0, 0, 0, 0, 0, 0, 0
62.617494999999998, 1, 0, 0, 0, 1, 0, 0, 0, 0
62.619352999999997, 1, 0, 0, 0, 1, 0, 0, 0, 1
62.767674999999997, 1, 0, 0, 0, 1, 1, 0, 0, 1
62.897900000000000, 0, 0, 0, 0, 1, 1, 0, 0, 1
62.902967999999994, 0, 0, 0, 0, 0, 1, 0, 0, 1
62.904461999999995, 0, 0, 0, 0, 0, 1, 0, 0, 0
63.054522999999996, 0, 0, 0, 0, 0, 0, 0, 0, 0
63.618883999999994, 0, 0, 0, 0, 0, 0, 0, 0, 1
63.779965999999995, 0, 0, 1, 0, 0, 0, 0, 0, 1
63.903990000000000, 0, 0, 1, 0, 0, 0, 0, 0, 0
64.009568999999999, 0, 0, 0, 0, 0, 0, 0, 0, 0
64.622256999999991, 0, 0, 0, 0, 0, 0, 0, 0, 1
64.907353999999998, 0, 0, 0, 0, 0, 0, 0, 0, 0
65.623707999999993, 0, 0, 0, 0, 0, 0, 0, 0, 1
65.624393999999995, 0, 0, 0, 1, 0, 0, 0, 0, 1
65.631214000000000, 0, 0, 0, 1, 0, 0, 0, 1, 1
65.773350999999991, 0, 0, 0, 1, 0, 0, 1, 1, 1
65.908805999999998, 0, 0, 0, 1, 0, 0, 1, 1, 0
65.909724999999995, 0, 0, 0, 0, 0, 0, 1, 1, 0
65.918368000000001, 0, 0, 0, 0, 0, 0, 1, 0, 0
66.043554000000000, 0, 0, 0, 0, 0, 0, 0, 0, 0
66.620744999999999, 0, 1, 0, 0, 0, 0, 0, 0, 0
66.625760999999997, 0, 1, 0, 0, 0, 0, 0, 0, 1
66.908290999999991, 0, 0, 0, 0, 0, 0, 0, 0, 1
66.910857999999990, 0, 0, 0, 0, 0, 0, 0, 0, 0
67.626611999999994, 0, 0, 0, 0, 0, 0, 0, 0, 1
67.730412999999999, 0, 0, 0, 0, 0, 1, 0, 0, 1
67.759019999999992, 0, 0, 0, 0, 1, 1, 0, 0, 1
67.825873000000001, 1, 0, 0, 0, 1, 1, 0, 0, 1
67.911715999999998, 1, 0, 0, 0, 1, 1, 0, 0, 0
68.013721000000004, 1, 0, 0, 0, 0, 1, 0, 0, 0
68.017257999999998, 1, 0, 0, 0, 0, 0, 0, 0, 0
68.112082000000001, 0, 0, 0, 0, 0, 0, 0, 0, 0
68.621741000000000, 0, 0, 1, 0, 0, 0, 0, 0, 0
68.626142000000002, 0, 0, 1, 0, 0, 0, 0, 0, 1
68.908492999999993, 0, 0, 0, 0, 0, 0, 0, 0, 1
68.911241000000004, 0, 0, 0, 0, 0, 0, 0, 0, 0
69.629514999999998, 0, 0, 0, 0, 0, 0, 0, 0, 1
69.914627999999993, 0, 0, 0, 0, 0, 0, 0, 0, 0
70.630966000000001, 0, 0, 0, 0, 0, 0, 0, 0, 1
70.650258999999991, 0, 0, 0, 0, 0, 0, 1, 0, 1
70.916066000000001, 0, 0, 0, 0, 0, 0, 1, 0, 0
70.937254999999993, 0, 0, 0, 0, 0, 0, 0, 0, 0
71.625016000000002, 0, 1, 0, 0, 0, 0, 0, 0, 0
71.632418000000001, 0, 1, 0, 0, 0, 0, 0, 0, 1
71.633189999999999, 0, 1, 0, 1, 0, 0, 0, 0, 1
71.863086999999993, 0, 1, 0, 0, 0, 0, 0, 0, 1
71.912553000000003, 0, 0, 0, 0, 0, 0, 0, 0, 1
71.917517000000004, 0, 0, 0, 0, 0, 0, 0, 0, 0
72.631925999999993, 0, 0, 0, 0, 1, 0, 0, 0, 0
72.631948999999992, 0, 0, 0, 0, 1, 0, 0, 0, 1
72.641375999999994, 0, 0, 0, 0, 1, 0, 0, 1, 1
72.675958999999992, 0, 0, 0, 0, 1, 1, 0, 1, 1
72.917045999999999, 0, 0, 0, 0, 1, 1, 0, 1, 0
72.917412999999996, 0, 0, 0, 0, 0, 1, 0, 1, 0
72.928522999999998, 0, 0, 0, 0, 0, 1, 0, 0, 0
72.962817999999999, 0, 0, 0, 0, 0, 0, 0, 0, 0
73.627743999999993, 1, 0, 0, 0, 0, 0, 0, 0, 0
73.629086000000001, 1, 0, 1, 0, 0, 0, 0, 0, 0
73.633400999999992, 1, 0, 1, 0, 0, 0, 0, 0, 1
73.913961999999998, 0, 0, 1, 0, 0, 0, 0, 0, 1
73.915836999999996, 0, 0, 0, 0, 0, 0, 0, 0, 1
73.918497000000002, 0, 0, 0, 0, 0, 0, 0, 0, 0
74.636772999999991, 0, 0, 0, 0, 0, 0, 0, 0, 1
74.921880000000002, 0, 0, 0, 0, 0, 0, 0, 0, 0
75.638224999999991, 0, 0, 0, 0, 0, 0, 0, 0, 1
75.788212999999999, 0, 0, 0, 0, 0, 0, 1, 0, 1
75.923319999999990, 0, 0, 0, 0, 0, 0, 1, 0, 0
76.075200999999993, 0, 0, 0, 0, 0, 0, 0, 0, 0
76.632274999999993, 0, 1, 0, 0, 0, 0, 0, 0, 0
76.637755999999996, 0, 1, 0, 0, 0, 0, 0, 0, 1
76.660766999999993, 0, 1, 0, 1, 0, 0, 0, 0, 1
76.919825000000003, 0, 0, 0, 1, 0, 0, 0, 0, 1
76.922857999999991, 0, 0, 0, 1, 0, 0, 0, 0, 0
76.946096999999995, 0, 0, 0, 0, 0, 0, 0, 0, 0
77.639269999999996, 0, 0, 0, 0, 1, 0, 0, 0, 0
77.641127999999995, 0, 0, 0, 0, 1, 0, 0, 0, 1
77.924763999999996, 0, 0, 0, 0, 0, 0, 0, 0, 1
77.926231999999999, 0, 0, 0, 0, 0, 0, 0, 0, 0
78.636344999999992, 0, 0, 1, 0, 0, 0, 0, 0, 0
78.640658999999999, 0, 0, 1, 0, 0, 0, 0, 0, 1
78.640907999999996, 0, 0, 1, 0, 0, 1, 0, 0, 1
78.923094999999989, 0, 0, 0, 0, 0, 1, 0, 0, 1
78.925756999999990, 0, 0, 0, 0, 0, 1, 0, 0, 0
78.927758999999995, 0, 0, 0, 0, 0, 0, 0, 0, 0
79.039740999999992, 1, 0, 0, 0, 0, 0, 0, 0, 0
79.325963000000002, 0, 0, 0, 0, 0, 0, 0, 0, 0
79.642111000000000, 0, 0, 0, 0, 0, 0, 0, 0, 1
79.651538000000002, 0, 0, 0, 0, 0, 0, 0, 1, 1
79.927208999999991, 0, 0, 0, 0, 0, 0, 0, 1, 0
79.938687999999999, 0, 0, 0, 0, 0, 0, 0, 0, 0
80.643562000000003, 0, 0, 0, 0, 0, 0, 0, 0, 1
80.875968000000000, 0, 0, 0, 0, 0, 0, 1, 0, 1
80.928660999999991, 0, 0, 0, 0, 0, 0, 1, 0, 0
81.162965000000000, 0, 0, 0, 0, 0, 0, 0, 0, 0
81.639533999999998, 0, 1, 0, 0, 0, 0, 0, 0, 0
81.646934999999999, 0, 1, 0, 0, 0, 0, 0, 0, 1
81.927081000000001, 0, 0, 0, 0, 0, 0, 0, 0, 1
81.932040000000001, 0, 0, 0, 0, 0, 0, 0, 0, 0
82.646465999999990, 0, 0, 0, 0, 0, 0, 0, 0, 1
82.649158000000000, 0, 0, 0, 1, 0, 0, 0, 0, 1
82.843246999999991, 0, 0, 0, 1, 1, 0, 0, 0, 1
82.931551999999996, 0, 0, 0, 1, 1, 0, 0, 0, 0
82.934486999999990, 0, 0, 0, 0, 1, 0, 0, 0, 0
83.128735999999989, 0, 0, 0, 0, 0, 0, 0, 0, 0
83.650440000000003, 0, 0, 0, 0, 0, 0, 0, 0, 1
83.693669999999997, 0, 0, 0, 0, 0, 1, 0, 0, 1
83.733678999999995, 0, 0, 1, 0, 0, 1, 0, 0, 1
83.935538999999991, 0, 0, 1, 0, 0, 1, 0, 0, 0
83.961489000000000, 0, 0, 0, 0, 0, 1, 0, 0, 0
83.974959999999996, 0, 0, 0, 0, 0, 0, 0, 0, 0
84.643711999999994, 1, 0, 0, 0, 0, 0, 0, 0, 0
84.651974999999993, 1, 0, 0, 0, 0, 0, 0, 0, 1
84.853814999999997, 0, 0, 0, 0, 0, 0, 0, 0, 1
84.937063999999992, 0, 0, 0, 0, 0, 0, 0, 0, 0
85.650820999999993, 0, 0, 0, 0, 0, 0, 0, 0, 1
85.830343999999997, 0, 0, 0, 0, 0, 0, 0, 1, 1
85.935925999999995, 0, 0, 0, 0, 0, 0, 0, 1, 0
86.091696999999996, 0, 0, 0, 0, 0, 0, 0, 0, 0
86.646791999999991, 0, 1, 0, 0, 0, 0, 0, 0, 0
86.654878999999994, 0, 1, 0, 0, 0, 0, 0, 0, 1
86.673847999999992, 0, 1, 0, 0, 0, 0, 1, 0, 1
86.934336999999999, 0, 0, 0, 0, 0, 0, 1, 0, 1
86.939978999999994, 0, 0, 0, 0, 0, 0, 1, 0, 0
86.960831999999996, 0, 0, 0, 0, 0, 0, 0, 0, 0
87.656245999999996, 0, 0, 0, 0, 0, 0, 0, 0, 1
87.668910999999994, 0, 0, 0, 0, 1, 0, 0, 0, 1
87.941342999999989, 0, 0, 0, 0, 1, 0, 0, 0, 0
87.954414999999997, 0, 0, 0, 0, 0, 0, 0, 0, 0
88.650774999999996, 0, 0, 1, 0, 0, 0, 0, 0, 0
88.655337000000003, 0, 0, 1, 0, 0, 1, 0, 0, 0
88.657781999999997, 0, 0, 1, 0, 0, 1, 0, 0, 1
88.657782999999995, 0, 0, 1, 1, 0, 1, 0, 0, 1
88.937518999999995, 0, 0, 0, 1, 0, 1, 0, 0, 1
88.942184999999995, 0, 0, 0, 1, 0, 0, 0, 0, 1
88.942887999999996, 0, 0, 0, 1, 0, 0, 0, 0, 0
88.943117999999998, 0, 0, 0, 0, 0, 0, 0, 0, 0
89.650881999999996, 1, 0, 0, 0, 0, 0, 0, 0, 0
89.658547999999996, 1, 0, 0, 0, 0, 0, 0, 0, 1
89.937096999999994, 0, 0, 0, 0, 0, 0, 0, 0, 1
89.943655999999990, 0, 0, 0, 0, 0, 0, 0, 0, 0
