Time[s], Channel 0, Channel 1, Channel 2, Channel 3, Channel 4, Channel 5, Channel 6, Channel 7, Channel 8
0.000000000000000, 0, 0, 0, 0, 0, 0, 0, 0, 0
5.021719000000000, 0, 1, 0, 0, 0, 0, 0, 0, 0
5.027279000000000, 0, 1, 0, 0, 0, 0, 0, 0, 1
5.309265000000000, 0, 0, 0, 0, 0, 0, 0, 0, 1
5.312408000000000, 0, 0, 0, 0, 0, 0, 0, 0, 0
6.028731000000000, 0, 0, 0, 0, 0, 0, 0, 0, 1
6.044370000000000, 0, 0, 0, 0, 0, 0, 1, 0, 1
6.313850000000000, 0, 0, 0, 0, 0, 0, 1, 0, 0
6.331384000000000, 0, 0, 0, 0, 0, 0, 0, 0, 0
7.030183000000000, 0, 0, 0, 0, 0, 0, 0, 0, 1
7.147658000000000, 0, 0, 0, 0, 1, 0, 0, 0, 1
7.315290999999999, 0, 0, 0, 0, 1, 0, 0, 0, 0
7.433152000000000, 0, 0, 0, 0, 0, 0, 0, 0, 0
8.031634000000000, 0, 0, 0, 0, 0, 0, 0, 0, 1
8.316748000000000, 0, 0, 0, 0, 0, 0, 0, 0, 0
8.415331000000000, 1, 0, 0, 0, 0, 0, 0, 0, 0
8.701558000000000, 0, 0, 0, 0, 0, 0, 0, 0, 0
9.033085999999999, 0, 0, 0, 0, 0, 0, 0, 0, 1
9.043790999999999, 0, 0, 0, 0, 0, 0, 0, 1, 1
9.318185000000000, 0, 0, 0, 0, 0, 0, 0, 1, 0
9.330968000000000, 0, 0, 0, 0, 0, 0, 0, 0, 0
10.034538000000000, 0, 0, 0, 0, 0, 0, 0, 0, 1
10.319633999999999, 0, 0, 0, 0, 0, 0, 0, 0, 0
11.035990000000000, 0, 0, 0, 0, 0, 0, 0, 0, 1
11.321092000000000, 0, 0, 0, 0, 0, 0, 0, 0, 0
12.033044000000000, 0, 0, 1, 0, 0, 0, 0, 0, 0
12.037440999999999, 0, 0, 1, 0, 0, 0, 0, 0, 1
12.319785000000000, 0, 0, 0, 0, 0, 0, 0, 0, 1
12.322554000000000, 0, 0, 0, 0, 0, 0, 0, 0, 0
13.038893000000000, 0, 0, 0, 0, 0, 0, 0, 0, 1
13.039064999999999, 0, 0, 0, 1, 0, 0, 0, 0, 1
13.045205999999999, 0, 0, 0, 1, 0, 1, 0, 0, 1
13.324000000000000, 0, 0, 0, 1, 0, 1, 0, 0, 0
13.324404999999999, 0, 0, 0, 0, 0, 1, 0, 0, 0
13.332075000000000, 0, 0, 0, 0, 0, 0, 0, 0, 0
14.034867999999999, 0, 1, 0, 0, 0, 0, 0, 0, 0
14.040344999999999, 0, 1, 0, 0, 0, 0, 0, 0, 1
14.322419000000000, 0, 0, 0, 0, 0, 0, 0, 0, 1
14.325446999999999, 0, 0, 0, 0, 0, 0, 0, 0, 0
15.041796999999999, 0, 0, 0, 0, 0, 0, 0, 0, 1
15.326915000000000, 0, 0, 0, 0, 0, 0, 0, 0, 0
16.043247999999998, 0, 0, 0, 0, 0, 0, 0, 0, 1
16.059245000000001, 0, 0, 0, 0, 0, 0, 1, 0, 1
16.257991000000001, 0, 0, 0, 0, 1, 0, 1, 0, 1
16.328368999999999, 0, 0, 0, 0, 1, 0, 1, 0, 0
16.346250999999999, 0, 0, 0, 0, 1, 0, 0, 0, 0
16.543478000000000, 0, 0, 0, 0, 0, 0, 0, 0, 0
17.044699999999999, 0, 0, 0, 0, 0, 0, 0, 0, 1
17.329815000000000, 0, 0, 0, 0, 0, 0, 0, 0, 0
18.046151999999999, 0, 0, 0, 0, 0, 0, 0, 0, 1
18.153345999999999, 1, 0, 0, 0, 0, 0, 0, 0, 1
18.331258999999999, 1, 0, 0, 0, 0, 0, 0, 0, 0
18.439568999999999, 0, 0, 0, 0, 0, 0, 0, 0, 0
19.047604000000000, 0, 0, 0, 0, 0, 0, 0, 0, 1
19.332716999999999, 0, 0, 0, 0, 0, 0, 0, 0, 0
20.049056000000000, 0, 0, 0, 0, 0, 0, 0, 0, 1
20.334182999999999, 0, 0, 0, 0, 0, 0, 0, 0, 0
21.050507000000000, 0, 0, 0, 0, 0, 0, 0, 0, 1
21.335622000000001, 0, 0, 0, 0, 0, 0, 0, 0, 0
22.047647999999999, 0, 0, 1, 0, 0, 0, 0, 0, 0
22.051959000000000, 0, 0, 1, 0, 0, 0, 0, 0, 1
22.062664999999999, 0, 0, 1, 0, 0, 0, 0, 1, 1
22.248480000000001, 0, 0, 1, 0, 0, 1, 0, 1, 1
22.334394000000000, 0, 0, 0, 0, 0, 1, 0, 1, 1
22.337073999999998, 0, 0, 0, 0, 0, 1, 0, 1, 0
22.349843000000000, 0, 0, 0, 0, 0, 1, 0, 0, 0
22.535353999999998, 0, 0, 0, 0, 0, 0, 0, 0, 0
23.047934999999999, 0, 1, 0, 0, 0, 0, 0, 0, 0
23.053411000000001, 0, 1, 0, 0, 0, 0, 0, 0, 1
23.079425999999998, 0, 1, 0, 1, 0, 0, 0, 0, 1
23.216801000000000, 0, 0, 0, 1, 0, 0, 0, 0, 1
23.338524000000000, 0, 0, 0, 1, 0, 0, 0, 0, 0
23.364774999999998, 0, 0, 0, 0, 0, 0, 0, 0, 0
24.054862999999997, 0, 0, 0, 0, 0, 0, 0, 0, 1
24.339973000000001, 0, 0, 0, 0, 0, 0, 0, 0, 0
25.056314999999998, 0, 0, 0, 0, 0, 0, 0, 0, 1
25.341435000000001, 0, 0, 0, 0, 0, 0, 0, 0, 0
26.057766999999998, 0, 0, 0, 0, 0, 0, 0, 0, 1
26.057831000000000, 0, 0, 0, 0, 1, 0, 0, 0, 1
26.073761999999999, 0, 0, 0, 0, 1, 0, 1, 0, 1
26.215919000000000, 0, 0, 0, 0, 1, 0, 0, 0, 1
26.341387999999998, 0, 0, 0, 0, 0, 0, 0, 0, 1
26.342887999999999, 0, 0, 0, 0, 0, 0, 0, 0, 0
27.059217999999998, 0, 0, 0, 0, 0, 0, 0, 0, 1
27.344339999999999, 0, 0, 0, 0, 0, 0, 0, 0, 0
28.055015999999998, 1, 0, 0, 0, 0, 0, 0, 0, 0
28.060669999999998, 1, 0, 0, 0, 0, 0, 0, 0, 1
28.312435999999998, 0, 0, 0, 0, 0, 0, 0, 0, 1
28.345782000000000, 0, 0, 0, 0, 0, 0, 0, 0, 0
29.062121999999999, 0, 0, 0, 0, 0, 0, 0, 0, 1
29.347234000000000, 0, 0, 0, 0, 0, 0, 0, 0, 0
30.063573999999999, 0, 0, 0, 0, 0, 0, 0, 0, 1
30.348690999999999, 0, 0, 0, 0, 0, 0, 0, 0, 0
31.065026000000000, 0, 0, 0, 0, 0, 0, 0, 0, 1
31.166041000000000, 0, 0, 0, 0, 0, 1, 0, 0, 1
31.206492999999998, 0, 1, 0, 0, 0, 1, 0, 0, 1
31.350144000000000, 0, 1, 0, 0, 0, 1, 0, 0, 0
31.447001999999998, 0, 1, 1, 0, 0, 1, 0, 0, 0
31.452914000000000, 0, 1, 1, 0, 0, 0, 0, 0, 0
31.494043999999999, 0, 0, 1, 0, 0, 0, 0, 0, 0
31.715358999999999, 0, 0, 0, 0, 0, 0, 0, 0, 0
32.066476999999999, 0, 0, 0, 0, 0, 0, 0, 0, 1
32.351596000000001, 0, 0, 0, 0, 0, 0, 0, 0, 0
33.067928999999999, 0, 0, 0, 0, 0, 0, 0, 0, 1
33.353038999999995, 0, 0, 0, 0, 0, 0, 0, 0, 0
34.069381000000000, 0, 0, 0, 0, 0, 0, 0, 0, 1
34.069640000000000, 0, 0, 0, 1, 0, 0, 0, 0, 1
34.203797000000002, 0, 0, 0, 1, 1, 0, 0, 0, 1
34.351661999999997, 0, 0, 0, 0, 1, 0, 0, 0, 1
34.354484999999997, 0, 0, 0, 0, 1, 0, 0, 0, 0
34.489301999999995, 0, 0, 0, 0, 0, 0, 0, 0, 0
35.070833000000000, 0, 0, 0, 0, 0, 0, 0, 0, 1
35.081538000000002, 0, 0, 0, 0, 0, 0, 0, 1, 1
35.086827999999997, 0, 0, 0, 0, 0, 0, 1, 1, 1
35.353451000000000, 0, 0, 0, 0, 0, 0, 1, 0, 1
35.355930000000001, 0, 0, 0, 0, 0, 0, 1, 0, 0
35.373832000000000, 0, 0, 0, 0, 0, 0, 0, 0, 0
36.072283999999996, 0, 0, 0, 0, 0, 0, 0, 0, 1
36.357388999999998, 0, 0, 0, 0, 0, 0, 0, 0, 0
37.073735999999997, 0, 0, 0, 0, 0, 0, 0, 0, 1
37.358843000000000, 0, 0, 0, 0, 0, 0, 0, 0, 0
38.069533999999997, 1, 0, 0, 0, 0, 0, 0, 0, 0
38.075187999999997, 1, 0, 0, 0, 0, 0, 0, 0, 1
38.355753999999997, 0, 0, 0, 0, 0, 0, 0, 0, 1
38.360295999999998, 0, 0, 0, 0, 0, 0, 0, 0, 0
39.076639000000000, 0, 0, 0, 0, 0, 0, 0, 0, 1
39.361748999999996, 0, 0, 0, 0, 0, 0, 0, 0, 0
40.072614999999999, 0, 1, 0, 0, 0, 0, 0, 0, 0
40.078091999999998, 0, 1, 0, 0, 0, 0, 0, 0, 1
40.084491999999997, 0, 1, 0, 0, 0, 1, 0, 0, 1
40.272731000000000, 0, 1, 0, 0, 0, 0, 0, 0, 1
40.360171999999999, 0, 0, 0, 0, 0, 0, 0, 0, 1
40.363185000000001, 0, 0, 0, 0, 0, 0, 0, 0, 0
41.075144999999999, 0, 0, 1, 0, 0, 0, 0, 0, 0
41.079543000000001, 0, 0, 1, 0, 0, 0, 0, 0, 1
41.361892999999995, 0, 0, 0, 0, 0, 0, 0, 0, 1
41.364647999999995, 0, 0, 0, 0, 0, 0, 0, 0, 0
42.080995000000001, 0, 0, 0, 0, 0, 0, 0, 0, 1
42.366096999999996, 0, 0, 0, 0, 0, 0, 0, 0, 0
43.082445999999997, 0, 0, 0, 0, 0, 0, 0, 0, 1
43.082512000000001, 0, 0, 0, 0, 1, 0, 0, 0, 1
43.367557999999995, 0, 0, 0, 0, 1, 0, 0, 0, 0
43.368012999999998, 0, 0, 0, 0, 0, 0, 0, 0, 0
44.083897999999998, 0, 0, 0, 0, 0, 0, 0, 0, 1
44.369001999999995, 0, 0, 0, 0, 0, 0, 0, 0, 0
45.085349999999998, 0, 0, 0, 0, 0, 0, 0, 0, 1
45.085608999999998, 0, 0, 0, 1, 0, 0, 0, 0, 1
45.101344999999995, 0, 0, 0, 1, 0, 0, 1, 0, 1
45.370460999999999, 0, 0, 0, 1, 0, 0, 1, 0, 0
45.370964999999998, 0, 0, 0, 0, 0, 0, 1, 0, 0
45.388345000000001, 0, 0, 0, 0, 0, 0, 0, 0, 0
46.086801999999999, 0, 0, 0, 0, 0, 0, 0, 0, 1
46.371910000000000, 0, 0, 0, 0, 0, 0, 0, 0, 0
47.088252999999995, 0, 0, 0, 0, 0, 0, 0, 0, 1
47.098959000000001, 0, 0, 0, 0, 0, 0, 0, 1, 1
47.373362999999998, 0, 0, 0, 0, 0, 0, 0, 1, 0
47.386133999999998, 0, 0, 0, 0, 0, 0, 0, 0, 0
48.089704999999995, 0, 0, 0, 0, 0, 0, 0, 0, 1
48.346776999999996, 1, 0, 0, 0, 0, 0, 0, 0, 1
48.374822999999999, 1, 0, 0, 0, 0, 0, 0, 0, 0
48.632999999999996, 0, 0, 0, 0, 0, 0, 0, 0, 0
49.091156999999995, 0, 0, 0, 0, 0, 0, 0, 0, 1
49.097470999999999, 0, 0, 0, 0, 0, 1, 0, 0, 1
49.237851999999997, 0, 1, 0, 0, 0, 1, 0, 0, 1
49.376269000000001, 0, 1, 0, 0, 0, 1, 0, 0, 0
49.384335999999998, 0, 1, 0, 0, 0, 0, 0, 0, 0
49.525407999999999, 0, 0, 0, 0, 0, 0, 0, 0, 0
50.092608999999996, 0, 0, 0, 0, 0, 0, 0, 0, 1
50.377714999999995, 0, 0, 0, 0, 0, 0, 0, 0, 0
51.089749999999995, 0, 0, 1, 0, 0, 0, 0, 0, 0
51.094059999999999, 0, 0, 1, 0, 0, 0, 0, 0, 1
51.376501999999995, 0, 0, 0, 0, 0, 0, 0, 0, 1
51.379166999999995, 0, 0, 0, 0, 0, 0, 0, 0, 0
52.095511999999999, 0, 0, 0, 0, 0, 0, 0, 0, 1
52.095576999999999, 0, 0, 0, 0, 1, 0, 0, 0, 1
52.376171999999997, 0, 0, 0, 0, 0, 0, 0, 0, 1
52.380617999999998, 0, 0, 0, 0, 0, 0, 0, 0, 0
53.096964000000000, 0, 0, 0, 0, 0, 0, 0, 0, 1
53.382083999999999, 0, 0, 0, 0, 0, 0, 0, 0, 0
54.098416000000000, 0, 0, 0, 0, 0, 0, 0, 0, 1
54.383530999999998, 0, 0, 0, 0, 0, 0, 0, 0, 0
55.099868000000001, 0, 0, 0, 0, 0, 0, 0, 0, 1
55.115863999999995, 0, 0, 0, 0, 0, 0, 1, 0, 1
55.318253999999996, 0, 0, 0, 0, 0, 0, 0, 0, 1
55.384978999999994, 0, 0, 0, 0, 0, 0, 0, 0, 0
56.101318999999997, 0, 0, 0, 0, 0, 0, 0, 0, 1
56.101492999999998, 0, 0, 0, 1, 0, 0, 0, 0, 1
56.386426000000000, 0, 0, 0, 1, 0, 0, 0, 0, 0
56.386843999999996, 0, 0, 0, 0, 0, 0, 0, 0, 0
57.102770999999997, 0, 0, 0, 0, 0, 0, 0, 0, 1
57.387888999999994, 0, 0, 0, 0, 0, 0, 0, 0, 0
58.104222999999998, 0, 0, 0, 0, 0, 0, 0, 0, 1
58.110623999999994, 0, 0, 0, 0, 0, 1, 0, 0, 1
58.222566000000000, 1, 0, 0, 0, 0, 1, 0, 0, 1
58.369822999999997, 1, 1, 0, 0, 0, 1, 0, 0, 1
58.389340999999995, 1, 1, 0, 0, 0, 1, 0, 0, 0
58.397494999999999, 1, 1, 0, 0, 0, 0, 0, 0, 0
58.441824999999994, 0, 1, 0, 0, 0, 0, 0, 0, 0
58.586375999999994, 0, 0, 0, 0, 0, 0, 0, 0, 0
59.105674999999998, 0, 0, 0, 0, 0, 0, 0, 0, 1
59.390792999999995, 0, 0, 0, 0, 0, 0, 0, 0, 0
60.107125999999994, 0, 0, 0, 0, 0, 0, 0, 0, 1
60.117832999999997, 0, 0, 0, 0, 0, 0, 0, 1, 1
60.322156999999997, 0, 0, 1, 0, 0, 0, 0, 1, 1
60.376517999999997, 0, 0, 1, 0, 1, 0, 0, 1, 1
60.392238999999996, 0, 0, 1, 0, 1, 0, 0, 1, 0
60.405014999999999, 0, 0, 1, 0, 1, 0, 0, 0, 0
60.548323999999994, 0, 0, 0, 0, 1, 0, 0, 0, 0
60.662022000000000, 0, 0, 0, 0, 0, 0, 0, 0, 0
61.108577999999994, 0, 0, 0, 0, 0, 0, 0, 0, 1
61.393695999999998, 0, 0, 0, 0, 0, 0, 0, 0, 0
62.110029999999995, 0, 0, 0, 0, 0, 0, 0, 0, 1
62.395147999999999, 0, 0, 0, 0, 0, 0, 0, 0, 0
63.111481999999995, 0, 0, 0, 0, 0, 0, 0, 0, 1
63.396594999999998, 0, 0, 0, 0, 0, 0, 0, 0, 0
64.112933999999996, 0, 0, 0, 0, 0, 0, 0, 0, 1
64.128928999999999, 0, 0, 0, 0, 0, 0, 1, 0, 1
64.398045999999994, 0, 0, 0, 0, 0, 0, 1, 0, 0
64.415926999999996, 0, 0, 0, 0, 0, 0, 0, 0, 0
65.114384999999999, 0, 0, 0, 0, 0, 0, 0, 0, 1
65.399491999999995, 0, 0, 0, 0, 0, 0, 0, 0, 0
66.115836999999999, 0, 0, 0, 0, 0, 0, 0, 0, 1
66.400942999999998, 0, 0, 0, 0, 0, 0, 0, 0, 0
66.449529999999996, 0, 1, 0, 0, 0, 0, 0, 0, 0
66.737078999999994, 0, 0, 0, 0, 0, 0, 0, 0, 0
67.117289000000000, 0, 0, 0, 0, 0, 0, 0, 0, 1
67.117462000000003, 0, 0, 0, 1, 0, 0, 0, 0, 1
67.123689999999996, 0, 0, 0, 1, 0, 1, 0, 0, 1
67.247541999999996, 0, 0, 0, 0, 0, 1, 0, 0, 1
67.402380999999991, 0, 0, 0, 0, 0, 1, 0, 0, 0
67.410564999999991, 0, 0, 0, 0, 0, 0, 0, 0, 0
68.113086999999993, 1, 0, 0, 0, 0, 0, 0, 0, 0
68.118740000000003, 1, 0, 0, 0, 0, 0, 0, 0, 1
68.399303000000003, 0, 0, 0, 0, 0, 0, 0, 0, 1
68.403841000000000, 0, 0, 0, 0, 0, 0, 0, 0, 0
69.115794999999991, 0, 0, 1, 0, 0, 0, 0, 0, 0
69.120192000000003, 0, 0, 1, 0, 0, 0, 0, 0, 1
69.402540000000002, 0, 0, 0, 0, 0, 0, 0, 0, 1
69.405296999999990, 0, 0, 0, 0, 0, 0, 0, 0, 0
70.121644000000003, 0, 0, 0, 0, 0, 0, 0, 0, 1
70.121707999999998, 0, 0, 0, 0, 1, 0, 0, 0, 1
70.406746999999996, 0, 0, 0, 0, 1, 0, 0, 0, 0
70.407213999999996, 0, 0, 0, 0, 0, 0, 0, 0, 0
71.123096000000004, 0, 0, 0, 0, 0, 0, 0, 0, 1
71.408202000000003, 0, 0, 0, 0, 0, 0, 0, 0, 0
72.124547999999990, 0, 0, 0, 0, 0, 0, 0, 0, 1
72.409655000000001, 0, 0, 0, 0, 0, 0, 0, 0, 0
73.125999999999991, 0, 0, 0, 0, 0, 0, 0, 0, 1
73.136704999999992, 0, 0, 0, 0, 0, 0, 0, 1, 1
73.411090000000002, 0, 0, 0, 0, 0, 0, 0, 1, 0
73.423883000000004, 0, 0, 0, 0, 0, 0, 0, 0, 0
74.127450999999994, 0, 0, 0, 0, 0, 0, 0, 0, 1
74.143446999999995, 0, 0, 0, 0, 0, 0, 1, 0, 1
74.412545999999992, 0, 0, 0, 0, 0, 0, 1, 0, 0
74.430444999999992, 0, 0, 0, 0, 0, 0, 0, 0, 0
75.123424999999997, 0, 1, 0, 0, 0, 0, 0, 0, 0
75.128902999999994, 0, 1, 0, 0, 0, 0, 0, 0, 1
75.410971000000004, 0, 0, 0, 0, 0, 0, 0, 0, 1
75.414006999999998, 0, 0, 0, 0, 0, 0, 0, 0, 0
76.130354999999994, 0, 0, 0, 0, 0, 0, 0, 0, 1
76.136754999999994, 0, 0, 0, 0, 0, 1, 0, 0, 1
76.349248000000003, 0, 0, 0, 0, 0, 0, 0, 0, 1
76.415452000000002, 0, 0, 0, 0, 0, 0, 0, 0, 0
77.131806999999995, 0, 0, 0, 0, 0, 0, 0, 0, 1
77.131979999999999, 0, 0, 0, 1, 0, 0, 0, 0, 1
77.416905999999997, 0, 0, 0, 1, 0, 0, 0, 0, 0
77.417332999999999, 0, 0, 0, 0, 0, 0, 0, 0, 0
78.127603999999991, 1, 0, 0, 0, 0, 0, 0, 0, 0
78.133257999999998, 1, 0, 0, 0, 0, 0, 0, 0, 1
78.413822999999994, 0, 0, 0, 0, 0, 0, 0, 0, 1
78.418349999999990, 0, 0, 0, 0, 0, 0, 0, 0, 0
79.130398999999997, 0, 0, 1, 0, 0, 0, 0, 0, 0
79.134709999999998, 0, 0, 1, 0, 0, 0, 0, 0, 1
79.134773999999993, 0, 0, 1, 0, 1, 0, 0, 0, 1
79.378945999999999, 0, 0, 1, 0, 0, 0, 0, 0, 1
79.417148999999995, 0, 0, 0, 0, 0, 0, 0, 0, 1
79.419800999999993, 0, 0, 0, 0, 0, 0, 0, 0, 0
80.136161000000001, 0, 0, 0, 0, 0, 0, 0, 0, 1
80.421255000000002, 0, 0, 0, 0, 0, 0, 0, 0, 0
81.137613000000002, 0, 0, 0, 0, 0, 0, 0, 0, 1
81.422702999999998, 0, 0, 0, 0, 0, 0, 0, 0, 0
82.139065000000002, 0, 0, 0, 0, 0, 0, 0, 0, 1
82.424157999999991, 0, 0, 0, 0, 0, 0, 0, 0, 0
83.140517000000003, 0, 0, 0, 0, 0, 0, 0, 0, 1
83.425609999999992, 0, 0, 0, 0, 0, 0, 0, 0, 0
84.136490999999992, 0, 1, 0, 0, 0, 0, 0, 0, 0
84.141969000000003, 0, 1, 0, 0, 0, 0, 0, 0, 1
84.157964999999990, 0, 1, 0, 0, 0, 0, 1, 0, 1
84.294814000000002, 0, 1, 0, 0, 0, 0, 0, 0, 1
84.424054999999996, 0, 0, 0, 0, 0, 0, 0, 0, 1
84.427067999999991, 0, 0, 0, 0, 0, 0, 0, 0, 0
85.143419999999992, 0, 0, 0, 0, 0, 0, 0, 0, 1
85.149733999999995, 0, 0, 0, 0, 0, 1, 0, 0, 1
85.428520999999989, 0, 0, 0, 0, 0, 1, 0, 0, 0
85.436608999999990, 0, 0, 0, 0, 0, 0, 0, 0, 0
86.144871999999992, 0, 0, 0, 0, 0, 0, 0, 0, 1
86.303934999999996, 0, 0, 0, 0, 0, 0, 0, 1, 1
86.429974000000001, 0, 0, 0, 0, 0, 0, 0, 1, 0
86.521076999999991, 0, 0, 0, 0, 0, 0, 0, 0, 0
87.146323999999993, 0, 0, 0, 0, 0, 0, 0, 0, 1
87.431422999999995, 0, 0, 0, 0, 0, 0, 0, 0, 0
88.147756000000001, 0, 0, 0, 0, 1, 0, 0, 0, 0
88.147774999999996, 0, 0, 0, 0, 1, 0, 0, 0, 1
88.147948999999997, 0, 0, 0, 1, 1, 0, 0, 0, 1
88.299560000000000, 1, 0, 0, 1, 1, 0, 0, 0, 1
88.432868999999997, 1, 0, 0, 1, 1, 0, 0, 0, 0
88.433259999999990, 1, 0, 0, 1, 0, 0, 0, 0, 0
88.433300000000003, 1, 0, 0, 0, 0, 0, 0, 0, 0
88.457351000000003, 0, 0, 0, 0, 0, 0, 0, 0, 0
89.144915999999995, 0, 0, 1, 0, 0, 0, 0, 0, 0
89.149226999999996, 0, 0, 1, 0, 0, 0, 0, 0, 1
89.321967999999998, 0, 0, 0, 0, 0, 0, 0, 0, 1
89.434320000000000, 0, 0, 0, 0, 0, 0, 0, 0, 0
90.150678999999997, 0, 0, 0, 0, 0, 0, 0, 0, 1
90.435783000000001, 0, 0, 0, 0, 0, 0, 0, 0, 0
91.152130999999997, 0, 0, 0, 0, 0, 0, 0, 0, 1
91.437241999999998, 0, 0, 0, 0, 0, 0, 0, 0, 0
92.153582000000000, 0, 0, 0, 0, 0, 0, 0, 0, 1
92.438684999999992, 0, 0, 0, 0, 0, 0, 0, 0, 0
93.149557000000001, 0, 1, 0, 0, 0, 0, 0, 0, 0
93.155034000000001, 0, 1, 0, 0, 0, 0, 0, 0, 1
93.170672999999994, 0, 1, 0, 0, 0, 0, 1, 0, 1
93.324781000000002, 0, 0, 0, 0, 0, 0, 1, 0, 1
93.440148999999991, 0, 0, 0, 0, 0, 0, 1, 0, 0
93.457667000000001, 0, 0, 0, 0, 0, 0, 0, 0, 0
94.156486000000001, 0, 0, 0, 0, 0, 0, 0, 0, 1
94.162887999999995, 0, 0, 0, 0, 0, 1, 0, 0, 1
94.441598999999997, 0, 0, 0, 0, 0, 1, 0, 0, 0
94.449753999999999, 0, 0, 0, 0, 0, 0, 0, 0, 0
95.157938000000001, 0, 0, 0, 0, 0, 0, 0, 0, 1
95.443052999999992, 0, 0, 0, 0, 0, 0, 0, 0, 0
96.159390000000002, 0, 0, 0, 0, 0, 0, 0, 0, 1
96.444494999999989, 0, 0, 0, 0, 0, 0, 0, 0, 0
97.160840999999991, 0, 0, 0, 0, 0, 0, 0, 0, 1
97.160905999999997, 0, 0, 0, 0, 1, 0, 0, 0, 1
97.170507999999998, 1, 0, 0, 0, 1, 0, 0, 0, 1
97.445944999999995, 1, 0, 0, 0, 1, 0, 0, 0, 0
97.446413999999990, 1, 0, 0, 0, 0, 0, 0, 0, 0
97.456733000000000, 0, 0, 0, 0, 0, 0, 0, 0, 0
98.162292999999991, 0, 0, 0, 0, 0, 0, 0, 0, 1
98.411210999999994, 0, 0, 1, 0, 0, 0, 0, 0, 1
98.447395000000000, 0, 0, 1, 0, 0, 0, 0, 0, 0
98.697955999999991, 0, 0, 0, 0, 0, 0, 0, 0, 0
99.163744999999992, 0, 0, 0, 0, 0, 0, 0, 0, 1
99.164003999999991, 0, 0, 0, 1, 0, 0, 0, 0, 1
99.174450999999991, 0, 0, 0, 1, 0, 0, 0, 1, 1
99.336370000000002, 0, 0, 0, 0, 0, 0, 0, 1, 1
99.448844999999992, 0, 0, 0, 0, 0, 0, 0, 1, 0
99.461618000000001, 0, 0, 0, 0, 0, 0, 0, 0, 0
100.165196999999992, 0, 0, 0, 0, 0, 0, 0, 0, 1
100.450299999999999, 0, 0, 0, 0, 0, 0, 0, 0, 0
101.166647999999995, 0, 0, 0, 0, 0, 0, 0, 0, 1
101.307690999999991, 0, 1, 0, 0, 0, 0, 0, 0, 1
101.451746999999997, 0, 1, 0, 0, 0, 0, 0, 0, 0
101.595236999999997, 0, 0, 0, 0, 0, 0, 0, 0, 0
102.168099999999995, 0, 0, 0, 0, 0, 0, 0, 0, 1
102.453203999999999, 0, 0, 0, 0, 0, 0, 0, 0, 0
103.169551999999996, 0, 0, 0, 0, 0, 0, 0, 0, 1
103.175952999999993, 0, 0, 0, 0, 0, 1, 0, 0, 1
103.185628999999992, 0, 0, 0, 0, 0, 1, 1, 0, 1
103.454673000000000, 0, 0, 0, 0, 0, 1, 1, 0, 0
103.462815999999989, 0, 0, 0, 0, 0, 0, 1, 0, 0
103.472634999999997, 0, 0, 0, 0, 0, 0, 0, 0, 0
104.171002999999999, 0, 0, 0, 0, 0, 0, 0, 0, 1
104.456115999999994, 0, 0, 0, 0, 0, 0, 0, 0, 0
105.172454999999999, 0, 0, 0, 0, 0, 0, 0, 0, 1
105.457562999999993, 0, 0, 0, 0, 0, 0, 0, 0, 0
106.173907000000000, 0, 0, 0, 0, 0, 0, 0, 0, 1
106.366329999999991, 0, 0, 0, 0, 1, 0, 0, 0, 1
106.459012999999999, 0, 0, 0, 0, 1, 0, 0, 0, 0
106.562419999999989, 0, 0, 0, 0, 0, 0, 0, 0, 0
107.175359000000000, 0, 0, 0, 0, 0, 0, 0, 0, 1
107.460460999999995, 0, 0, 0, 0, 0, 0, 0, 0, 0
107.510182000000000, 1, 0, 0, 0, 0, 0, 0, 0, 0
107.796399999999991, 0, 0, 0, 0, 0, 0, 0, 0, 0
108.172499000000002, 0, 0, 1, 0, 0, 0, 0, 0, 0
108.176809999999989, 0, 0, 1, 0, 0, 0, 0, 0, 1
108.459250999999995, 0, 0, 0, 0, 0, 0, 0, 0, 1
108.461911999999998, 0, 0, 0, 0, 0, 0, 0, 0, 0
109.178261999999989, 0, 0, 0, 0, 0, 0, 0, 0, 1
109.178522000000001, 0, 0, 0, 1, 0, 0, 0, 0, 1
109.463369000000000, 0, 0, 0, 1, 0, 0, 0, 0, 0
109.463875000000002, 0, 0, 0, 0, 0, 0, 0, 0, 0
110.174235999999993, 0, 1, 0, 0, 0, 0, 0, 0, 0
110.179713999999990, 0, 1, 0, 0, 0, 0, 0, 0, 1
110.461801999999992, 0, 0, 0, 0, 0, 0, 0, 0, 1
110.464813999999990, 0, 0, 0, 0, 0, 0, 0, 0, 0
111.181164999999993, 0, 0, 0, 0, 0, 0, 0, 0, 1
111.373080999999999, 0, 0, 0, 0, 0, 0, 0, 1, 1
111.466275999999993, 0, 0, 0, 0, 0, 0, 0, 1, 0
111.660249999999991, 0, 0, 0, 0, 0, 0, 0, 0, 0
112.182617999999991, 0, 0, 0, 0, 0, 0, 0, 0, 1
112.288354999999996, 0, 0, 0, 0, 0, 1, 0, 0, 1
112.333389999999994, 0, 0, 0, 0, 0, 1, 1, 0, 1
112.467717999999991, 0, 0, 0, 0, 0, 1, 1, 0, 0
112.500788999999997, 0, 0, 0, 0, 0, 1, 0, 0, 0
112.555231999999990, 0, 0, 0, 0, 0, 0, 0, 0, 0
113.184068999999994, 0, 0, 0, 0, 0, 0, 0, 0, 1
113.469172000000000, 0, 0, 0, 0, 0, 0, 0, 0, 0
114.185520999999994, 0, 0, 0, 0, 0, 0, 0, 0, 1
114.470624999999998, 0, 0, 0, 0, 0, 0, 0, 0, 0
115.186952999999988, 0, 0, 0, 0, 1, 0, 0, 0, 0
115.186972999999995, 0, 0, 0, 0, 1, 0, 0, 0, 1
115.472082999999998, 0, 0, 0, 0, 1, 0, 0, 0, 0
115.472448000000000, 0, 0, 0, 0, 0, 0, 0, 0, 0
116.188423999999998, 0, 0, 0, 0, 0, 0, 0, 0, 1
116.473541999999995, 0, 0, 0, 0, 0, 0, 0, 0, 0
117.189875999999998, 0, 0, 0, 0, 0, 0, 0, 0, 1
117.329044999999994, 1, 0, 0, 0, 0, 0, 0, 0, 1
117.467022999999998, 1, 0, 1, 0, 0, 0, 0, 0, 1
117.474988999999994, 1, 0, 1, 0, 0, 0, 0, 0, 0
117.603795999999988, 0, 0, 1, 0, 0, 0, 0, 0, 0
117.688046999999997, 0, 0, 0, 0, 0, 0, 0, 0, 0
118.191327999999999, 0, 0, 0, 0, 0, 0, 0, 0, 1
118.476441999999992, 0, 0, 0, 0, 0, 0, 0, 0, 0
119.187303000000000, 0, 1, 0, 0, 0, 0, 0, 0, 0
119.192779999999999, 0, 1, 0, 0, 0, 0, 0, 0, 1
119.426648000000000, 0, 0, 0, 0, 0, 0, 0, 0, 1
119.477887999999993, 0, 0, 0, 0, 0, 0, 0, 0, 0
120.194232000000000, 0, 0, 0, 0, 0, 0, 0, 0, 1
120.194490999999999, 0, 0, 0, 1, 0, 0, 0, 0, 1
120.479337999999998, 0, 0, 0, 1, 0, 0, 0, 0, 0
120.479838999999998, 0, 0, 0, 0, 0, 0, 0, 0, 0
121.195682999999988, 0, 0, 0, 0, 0, 0, 0, 0, 1
121.201997999999989, 0, 0, 0, 0, 0, 1, 0, 0, 1
121.211680000000001, 0, 0, 0, 0, 0, 1, 1, 0, 1
121.480789999999999, 0, 0, 0, 0, 0, 1, 1, 0, 0
121.488872999999998, 0, 0, 0, 0, 0, 0, 1, 0, 0
121.498669999999990, 0, 0, 0, 0, 0, 0, 0, 0, 0
122.197134999999989, 0, 0, 0, 0, 0, 0, 0, 0, 1
122.482240999999988, 0, 0, 0, 0, 0, 0, 0, 0, 0
